<Qucs Dataset 0.0.20>
<indep time 100>
  +0.00000000000000000000e+00
  +2.02020202020202026803e-05
  +4.04040404040404053606e-05
  +6.06060606060606114290e-05
  +8.08080808080808107212e-05
  +1.01010101010101010013e-04
  +1.21212121212121222858e-04
  +1.41414141414141408598e-04
  +1.61616161616161621442e-04
  +1.81818181818181834287e-04
  +2.02020202020202020027e-04
  +2.22222222222222232871e-04
  +2.42424242424242445716e-04
  +2.62626262626262658561e-04
  +2.82828282828282817195e-04
  +3.03030303030303030040e-04
  +3.23232323232323242885e-04
  +3.43434343434343455730e-04
  +3.63636363636363668574e-04
  +3.83838383838383827209e-04
  +4.04040404040404040054e-04
  +4.24242424242424252898e-04
  +4.44444444444444465743e-04
  +4.64646464646464678588e-04
  +4.84848484848484891432e-04
  +5.05050505050505050067e-04
  +5.25252525252525317122e-04
  +5.45454545454545475756e-04
  +5.65656565656565634391e-04
  +5.85858585858585901446e-04
  +6.06060606060606060080e-04
  +6.26262626262626327135e-04
  +6.46464646464646485770e-04
  +6.66666666666666644404e-04
  +6.86868686868686911459e-04
  +7.07070707070707070094e-04
  +7.27272727272727337149e-04
  +7.47474747474747495783e-04
  +7.67676767676767654418e-04
  +7.87878787878787921473e-04
  +8.08080808080808080107e-04
  +8.28282828282828347162e-04
  +8.48484848484848505797e-04
  +8.68686868686868664431e-04
  +8.88888888888888931486e-04
  +9.09090909090909090121e-04
  +9.29292929292929357175e-04
  +9.49494949494949515810e-04
  +9.69696969696969782865e-04
  +9.89898989898989941499e-04
  +1.01010101010101010013e-03
  +1.03030303030303025877e-03
  +1.05050505050505063424e-03
  +1.07070707070707079288e-03
  +1.09090909090909095151e-03
  +1.11111111111111111015e-03
  +1.13131313131313126878e-03
  +1.15151515151515164426e-03
  +1.17171717171717180289e-03
  +1.19191919191919196153e-03
  +1.21212121212121212016e-03
  +1.23232323232323227880e-03
  +1.25252525252525265427e-03
  +1.27272727272727281290e-03
  +1.29292929292929297154e-03
  +1.31313131313131313017e-03
  +1.33333333333333328881e-03
  +1.35353535353535366428e-03
  +1.37373737373737382292e-03
  +1.39393939393939398155e-03
  +1.41414141414141414019e-03
  +1.43434343434343429882e-03
  +1.45454545454545467430e-03
  +1.47474747474747483293e-03
  +1.49494949494949499157e-03
  +1.51515151515151515020e-03
  +1.53535353535353530884e-03
  +1.55555555555555568431e-03
  +1.57575757575757584295e-03
  +1.59595959595959600158e-03
  +1.61616161616161616021e-03
  +1.63636363636363631885e-03
  +1.65656565656565669432e-03
  +1.67676767676767685296e-03
  +1.69696969696969701159e-03
  +1.71717171717171717023e-03
  +1.73737373737373732886e-03
  +1.75757575757575770434e-03
  +1.77777777777777786297e-03
  +1.79797979797979802161e-03
  +1.81818181818181818024e-03
  +1.83838383838383833888e-03
  +1.85858585858585871435e-03
  +1.87878787878787887299e-03
  +1.89898989898989903162e-03
  +1.91919191919191919025e-03
  +1.93939393939393956573e-03
  +1.95959595959595972436e-03
  +1.97979797979797988300e-03
  +2.00000000000000004163e-03
</indep>
<dep Volt_C1.Vt time>
  +0.00000000000000000000e+00
  +1.25068869455493425491e+00
  +2.34503802930864369003e+00
  +3.30264365875698384656e+00
  +4.14055892543218639901e+00
  +4.87347956076179933405e+00
  +5.51480822204871579117e+00
  +6.07595989681715398234e+00
  +6.56680785080440809764e+00
  +6.99631545197063076102e+00
  +7.37211267493188682209e+00
  +7.70081571037701984039e+00
  +7.98843631916093066536e+00
  +8.24010723632332009458e+00
  +8.46025532200851593245e+00
  +8.65287763818357191781e+00
  +8.82141891955473589348e+00
  +8.96886927875143946665e+00
  +9.09786858112291518808e+00
  +9.21073277346659402554e+00
  +9.30947963824645796649e+00
  +9.39587207733102403040e+00
  +9.47145577862258392088e+00
  +9.53758304579393190181e+00
  +9.59543699299188546092e+00
  +9.31302548257613871385e+00
  +8.14811423536944445800e+00
  +7.12888323427060210946e+00
  +6.23715798044262381694e+00
  +5.45698050666515399598e+00
  +4.77439185338868998798e+00
  +4.17718508282422718025e+00
  +3.65468016702162268317e+00
  +3.19753299372376265097e+00
  +2.79756826280211878810e+00
  +2.44763328491046205926e+00
  +2.14147006779413384692e+00
  +1.87360340273603220851e+00
  +1.63924294975553452858e+00
  +1.43419757052064134051e+00
  +1.25480037696307689110e+00
  +1.09784315521821529416e+00
  +9.60518992173487906605e-01
  +8.40372078598595861898e-01
  +7.35253791171852522091e-01
  +6.43284268004339243596e-01
  +5.62818790505435817551e-01
  +4.92418370386550674489e-01
  +4.30824015801590243235e-01
  +3.76934216417849632386e-01
  +9.75995814830207031321e-01
  +2.10469271295406556987e+00
  +3.09221688214473289236e+00
  +3.95633394913788105640e+00
  +4.71238811127442414062e+00
  +5.37386095616520886864e+00
  +5.95258447418863134715e+00
  +6.45891049029093711198e+00
  +6.90191919548122800876e+00
  +7.28952653048302323668e+00
  +7.62855829114980732442e+00
  +7.92521788427057671811e+00
  +8.18479819134787867085e+00
  +8.41186407941550839951e+00
  +8.61053956986369861681e+00
  +8.78437785504658918967e+00
  +8.93646164392314723557e+00
  +9.06951406248500369145e+00
  +9.18592509321609362871e+00
  +9.28777569848439910061e+00
  +9.37688356262771449678e+00
  +9.45484295649936257178e+00
  +9.52304868840940876851e+00
  +9.58272105929840378735e+00
  +9.63492769571731955125e+00
  +8.72707024108899709347e+00
  +7.63536799490018847081e+00
  +6.68023929386123871410e+00
  +5.84452950009016092281e+00
  +5.11330825480660156046e+00
  +4.47371700689721141231e+00
  +3.91406164786643273601e+00
  +3.42436525190754803560e+00
  +2.99603315670569614326e+00
  +2.62123385244764772750e+00
  +2.29328583169822630694e+00
  +2.00643327698111262336e+00
  +1.75543144776835857712e+00
  +1.53580576716784245050e+00
  +1.34370158249263416117e+00
  +1.17560650386726428529e+00
  +1.02852392832238770382e+00
  +8.99872406799385071707e-01
  +7.87299698807680914392e-01
  +6.88798995515030876291e-01
  +6.02641508021683591778e-01
  +5.27251943971338232764e-01
  +4.61286356314889400831e-01
  +4.03586979767799614027e-01
  +3.53098841532015261802e-01
</dep>
<dep Volt_R1.Vt time>
  +0.00000000000000000000e+00
  +8.74931130544506530100e+00
  +7.65496197069135675406e+00
  +6.69735634124301615344e+00
  +5.85944107456781360099e+00
  +5.12652043923820066595e+00
  +4.48519177795128420883e+00
  +3.92404010318284601766e+00
  +3.43319214919559190236e+00
  +3.00368454802936923898e+00
  +2.62788732506811317791e+00
  +2.29918428962298015961e+00
  +2.01156368083906933464e+00
  +1.75989276367667990542e+00
  +1.53974467799148406755e+00
  +1.34712236181642808219e+00
  +1.17858108044526410652e+00
  +1.03113072124856053335e+00
  +9.02131418877084811925e-01
  +7.89267226533405974465e-01
  +6.90520361753542033512e-01
  +6.04127922668975969600e-01
  +5.28544221377416079122e-01
  +4.62416954206068098188e-01
  +4.04563007008114539076e-01
  -9.31302548257613871385e+00
  -8.14811423536944445800e+00
  -7.12888323427060210946e+00
  -6.23715798044262381694e+00
  -5.45698050666515399598e+00
  -4.77439185338868998798e+00
  -4.17718508282422718025e+00
  -3.65468016702162268317e+00
  -3.19753299372376265097e+00
  -2.79756826280211878810e+00
  -2.44763328491046205926e+00
  -2.14147006779413384692e+00
  -1.87360340273603220851e+00
  -1.63924294975553452858e+00
  -1.43419757052064134051e+00
  -1.25480037696307689110e+00
  -1.09784315521821529416e+00
  -9.60518992173487906605e-01
  -8.40372078598595861898e-01
  -7.35253791171852522091e-01
  -6.43284268004339243596e-01
  -5.62818790505435817551e-01
  -4.92418370386550674489e-01
  -4.30824015801590243235e-01
  -3.76934216417849632386e-01
  +9.02400418516979385686e+00
  +7.89530728704593443013e+00
  +6.90778311785526710764e+00
  +6.04366605086211894360e+00
  +5.28761188872557585938e+00
  +4.62613904383479113136e+00
  +4.04741552581136865285e+00
  +3.54108950970906288802e+00
  +3.09808080451877199124e+00
  +2.71047346951697676332e+00
  +2.37144170885019267558e+00
  +2.07478211572942328189e+00
  +1.81520180865212132915e+00
  +1.58813592058449160049e+00
  +1.38946043013630138319e+00
  +1.21562214495341081033e+00
  +1.06353835607685276443e+00
  +9.30485937514996308551e-01
  +8.14074906783906371288e-01
  +7.12224301515600899393e-01
  +6.23116437372285503216e-01
  +5.45157043500637428224e-01
  +4.76951311590591231493e-01
  +4.17278940701596212648e-01
  +3.65072304282680448750e-01
  -8.72707024108899709347e+00
  -7.63536799490018847081e+00
  -6.68023929386123871410e+00
  -5.84452950009016092281e+00
  -5.11330825480660156046e+00
  -4.47371700689721141231e+00
  -3.91406164786643273601e+00
  -3.42436525190754803560e+00
  -2.99603315670569614326e+00
  -2.62123385244764772750e+00
  -2.29328583169822630694e+00
  -2.00643327698111262336e+00
  -1.75543144776835857712e+00
  -1.53580576716784245050e+00
  -1.34370158249263416117e+00
  -1.17560650386726428529e+00
  -1.02852392832238770382e+00
  -8.99872406799385071707e-01
  -7.87299698807680914392e-01
  -6.88798995515030876291e-01
  -6.02641508021683591778e-01
  -5.27251943971338232764e-01
  -4.61286356314889400831e-01
  -4.03586979767799614027e-01
  -3.53098841532015261802e-01
</dep>
<dep Amp_C.It time>
  +0.00000000000000000000e+00
  +3.24048566868335703815e-04
  +2.83517110025605762434e-04
  +2.48050234860852430660e-04
  +2.17016336095104218559e-04
  +1.89871127379192600930e-04
  +1.66118213998195694099e-04
  +1.45334818636401724018e-04
  +1.27155264785021922952e-04
  +1.11247575852939579229e-04
  +9.73291601877078547522e-05
  +8.51549736897400062286e-05
  +7.45023585495951782588e-05
  +6.51812134695066772421e-05
  +5.70275806663512595685e-05
  +4.98934208080158047758e-05
  +4.36511511276023751326e-05
  +3.81900267129096131972e-05
  +3.34122747732253566263e-05
  +2.92321195012372314203e-05
  +2.55748282130941003603e-05
  +2.23751082469991006952e-05
  +1.95757119028672412636e-05
  +1.71265538594839836933e-05
  +1.49838150743745561206e-05
  -3.44926869725042212992e-04
  -3.01782008717386897746e-04
  -2.64032712380392721799e-04
  -2.31005851127504577107e-04
  -2.02110389135746413561e-04
  -1.76829327903284803415e-04
  -1.54710558623119510610e-04
  -1.35358524704504536770e-04
  -1.18427147915694906807e-04
  -1.03613639363041418109e-04
  -9.06530846263134176734e-05
  -7.93137062145975478339e-05
  -6.93927186198530523932e-05
  -6.07127018427975741828e-05
  -5.31184285378015193322e-05
  -4.64740880356695094337e-05
  -4.06608576006746322241e-05
  -3.55747774879069635556e-05
  -3.11248917999479911647e-05
  -2.72316218952537937223e-05
  -2.38253432594199723675e-05
  -2.08451403890902094184e-05
  -1.82377174217240974258e-05
  -1.59564450296885234314e-05
  -1.39605265339944293885e-05
  +3.34222377228510811147e-04
  +2.92418788409108741481e-04
  +2.55843819179824732458e-04
  +2.23839483365263677275e-04
  +1.95837477360206487073e-04
  +1.71338483104992227125e-04
  +1.49904278733754359534e-04
  +1.31151463322557869547e-04
  +1.14743733500695236673e-04
  +1.00387906278406513938e-04
  +8.78311744018589549967e-05
  +7.68437820640527010935e-05
  +6.72296966167452075607e-05
  +5.88198489105366676463e-05
  +5.14614974124555856708e-05
  +4.50230424056819041826e-05
  +3.93903094843278209366e-05
  +3.44624421301850257689e-05
  +3.01509224734779833596e-05
  +2.63786778339111456276e-05
  +2.30783865693439367377e-05
  +2.01910016111346946684e-05
  +1.76648633922440812590e-05
  +1.54547755815406256280e-05
  +1.35211964549140310071e-05
  -3.23224823744036951489e-04
  -2.82791407218525511769e-04
  -2.47416270143008905271e-04
  -2.16464055558894839315e-04
  -1.89381787215059328635e-04
  -1.65693222477674480947e-04
  -1.44965246217275265566e-04
  -1.26828342663242533755e-04
  -1.10964190989099850725e-04
  -9.70827352758388072802e-05
  -8.49365122851194912033e-05
  -7.43123435918930584339e-05
  -6.50159795469762468497e-05
  -5.68816950802904640230e-05
  -4.97667252775049688660e-05
  -4.35409816247135005246e-05
  -3.80934788267551041087e-05
  -3.33286076592364836012e-05
  -2.91592481039881799355e-05
  -2.55110739079641097367e-05
  -2.23200558526549490824e-05
  -1.95278497767162296465e-05
  -1.70846798635144213124e-05
  -1.49476659173259111488e-05
  -1.30777348715561213114e-05
</dep>
<dep Fo.It time>
  +0.00000000000000000000e+00
  -3.24048566868335758025e-04
  -2.83517110025605816644e-04
  -2.48050234860852430660e-04
  -2.17016336095104191454e-04
  -1.89871127379192600930e-04
  -1.66118213998195694099e-04
  -1.45334818636401724018e-04
  -1.27155264785021922952e-04
  -1.11247575852939579229e-04
  -9.73291601877078411996e-05
  -8.51549736897399926761e-05
  -7.45023585495951647063e-05
  -6.51812134695066772421e-05
  -5.70275806663512527923e-05
  -4.98934208080158047758e-05
  -4.36511511276023751326e-05
  -3.81900267129096131972e-05
  -3.34122747732253566263e-05
  -2.92321195012372314203e-05
  -2.55748282130941003603e-05
  -2.23751082469991006952e-05
  -1.95757119028672412636e-05
  -1.71265538594839836933e-05
  -1.49838150743745561206e-05
  +3.44926869725042212992e-04
  +3.01782008717386843535e-04
  +2.64032712380392667589e-04
  +2.31005851127504577107e-04
  +2.02110389135746440666e-04
  +1.76829327903284803415e-04
  +1.54710558623119510610e-04
  +1.35358524704504536770e-04
  +1.18427147915694906807e-04
  +1.03613639363041431661e-04
  +9.06530846263134176734e-05
  +7.93137062145975478339e-05
  +6.93927186198530523932e-05
  +6.07127018427975741828e-05
  +5.31184285378015261085e-05
  +4.64740880356695162099e-05
  +4.06608576006746322241e-05
  +3.55747774879069635556e-05
  +3.11248917999479911647e-05
  +2.72316218952537971104e-05
  +2.38253432594199723675e-05
  +2.08451403890902128065e-05
  +1.82377174217241008140e-05
  +1.59564450296885268195e-05
  +1.39605265339944310826e-05
  -3.34222377228510811147e-04
  -2.92418788409108687271e-04
  -2.55843819179824678248e-04
  -2.23839483365263677275e-04
  -1.95837477360206487073e-04
  -1.71338483104992254230e-04
  -1.49904278733754359534e-04
  -1.31151463322557869547e-04
  -1.14743733500695223120e-04
  -1.00387906278406513938e-04
  -8.78311744018589549967e-05
  -7.68437820640527010935e-05
  -6.72296966167452075607e-05
  -5.88198489105366744225e-05
  -5.14614974124555856708e-05
  -4.50230424056819041826e-05
  -3.93903094843278209366e-05
  -3.44624421301850257689e-05
  -3.01509224734779833596e-05
  -2.63786778339111422395e-05
  -2.30783865693439367377e-05
  -2.01910016111346946684e-05
  -1.76648633922440812590e-05
  -1.54547755815406256280e-05
  -1.35211964549140310071e-05
  +3.23224823744036951489e-04
  +2.82791407218525511769e-04
  +2.47416270143008851061e-04
  +2.16464055558894839315e-04
  +1.89381787215059328635e-04
  +1.65693222477674480947e-04
  +1.44965246217275265566e-04
  +1.26828342663242506650e-04
  +1.10964190989099864277e-04
  +9.70827352758388072802e-05
  +8.49365122851194912033e-05
  +7.43123435918930584339e-05
  +6.50159795469762468497e-05
  +5.68816950802904572468e-05
  +4.97667252775049756422e-05
  +4.35409816247134937484e-05
  +3.80934788267551041087e-05
  +3.33286076592364836012e-05
  +2.91592481039881799355e-05
  +2.55110739079641063486e-05
  +2.23200558526549456943e-05
  +1.95278497767162330346e-05
  +1.70846798635144213124e-05
  +1.49476659173259111488e-05
  +1.30777348715561213114e-05
</dep>
<dep _net1.Vt time>
  +0.00000000000000000000e+00
  +1.25068869455493425491e+00
  +2.34503802930864369003e+00
  +3.30264365875698384656e+00
  +4.14055892543218639901e+00
  +4.87347956076179933405e+00
  +5.51480822204871579117e+00
  +6.07595989681715398234e+00
  +6.56680785080440809764e+00
  +6.99631545197063076102e+00
  +7.37211267493188682209e+00
  +7.70081571037701984039e+00
  +7.98843631916093066536e+00
  +8.24010723632332009458e+00
  +8.46025532200851593245e+00
  +8.65287763818357191781e+00
  +8.82141891955473589348e+00
  +8.96886927875143946665e+00
  +9.09786858112291518808e+00
  +9.21073277346659402554e+00
  +9.30947963824645796649e+00
  +9.39587207733102403040e+00
  +9.47145577862258392088e+00
  +9.53758304579393190181e+00
  +9.59543699299188546092e+00
  +9.31302548257613871385e+00
  +8.14811423536944445800e+00
  +7.12888323427060210946e+00
  +6.23715798044262381694e+00
  +5.45698050666515399598e+00
  +4.77439185338868998798e+00
  +4.17718508282422718025e+00
  +3.65468016702162268317e+00
  +3.19753299372376265097e+00
  +2.79756826280211878810e+00
  +2.44763328491046205926e+00
  +2.14147006779413384692e+00
  +1.87360340273603220851e+00
  +1.63924294975553452858e+00
  +1.43419757052064134051e+00
  +1.25480037696307689110e+00
  +1.09784315521821529416e+00
  +9.60518992173487906605e-01
  +8.40372078598595861898e-01
  +7.35253791171852522091e-01
  +6.43284268004339243596e-01
  +5.62818790505435817551e-01
  +4.92418370386550674489e-01
  +4.30824015801590243235e-01
  +3.76934216417849632386e-01
  +9.75995814830207031321e-01
  +2.10469271295406556987e+00
  +3.09221688214473289236e+00
  +3.95633394913788105640e+00
  +4.71238811127442414062e+00
  +5.37386095616520886864e+00
  +5.95258447418863134715e+00
  +6.45891049029093711198e+00
  +6.90191919548122800876e+00
  +7.28952653048302323668e+00
  +7.62855829114980732442e+00
  +7.92521788427057671811e+00
  +8.18479819134787867085e+00
  +8.41186407941550839951e+00
  +8.61053956986369861681e+00
  +8.78437785504658918967e+00
  +8.93646164392314723557e+00
  +9.06951406248500369145e+00
  +9.18592509321609362871e+00
  +9.28777569848439910061e+00
  +9.37688356262771449678e+00
  +9.45484295649936257178e+00
  +9.52304868840940876851e+00
  +9.58272105929840378735e+00
  +9.63492769571731955125e+00
  +8.72707024108899709347e+00
  +7.63536799490018847081e+00
  +6.68023929386123871410e+00
  +5.84452950009016092281e+00
  +5.11330825480660156046e+00
  +4.47371700689721141231e+00
  +3.91406164786643273601e+00
  +3.42436525190754803560e+00
  +2.99603315670569614326e+00
  +2.62123385244764772750e+00
  +2.29328583169822630694e+00
  +2.00643327698111262336e+00
  +1.75543144776835857712e+00
  +1.53580576716784245050e+00
  +1.34370158249263416117e+00
  +1.17560650386726428529e+00
  +1.02852392832238770382e+00
  +8.99872406799385071707e-01
  +7.87299698807680914392e-01
  +6.88798995515030876291e-01
  +6.02641508021683591778e-01
  +5.27251943971338232764e-01
  +4.61286356314889400831e-01
  +4.03586979767799614027e-01
  +3.53098841532015261802e-01
</dep>
<dep _net0.Vt time>
  +0.00000000000000000000e+00
  +1.00000000000000000000e+01
  +1.00000000000000000000e+01
  +1.00000000000000000000e+01
  +1.00000000000000000000e+01
  +1.00000000000000000000e+01
  +1.00000000000000000000e+01
  +1.00000000000000000000e+01
  +1.00000000000000000000e+01
  +1.00000000000000000000e+01
  +1.00000000000000000000e+01
  +1.00000000000000000000e+01
  +1.00000000000000000000e+01
  +1.00000000000000000000e+01
  +1.00000000000000000000e+01
  +1.00000000000000000000e+01
  +1.00000000000000000000e+01
  +1.00000000000000000000e+01
  +1.00000000000000000000e+01
  +1.00000000000000000000e+01
  +1.00000000000000000000e+01
  +1.00000000000000000000e+01
  +1.00000000000000000000e+01
  +1.00000000000000000000e+01
  +1.00000000000000000000e+01
  +0.00000000000000000000e+00
  +0.00000000000000000000e+00
  +0.00000000000000000000e+00
  +0.00000000000000000000e+00
  +0.00000000000000000000e+00
  +0.00000000000000000000e+00
  +0.00000000000000000000e+00
  +0.00000000000000000000e+00
  +0.00000000000000000000e+00
  +0.00000000000000000000e+00
  +0.00000000000000000000e+00
  +0.00000000000000000000e+00
  +0.00000000000000000000e+00
  +0.00000000000000000000e+00
  +0.00000000000000000000e+00
  +0.00000000000000000000e+00
  +0.00000000000000000000e+00
  +0.00000000000000000000e+00
  +0.00000000000000000000e+00
  +0.00000000000000000000e+00
  +0.00000000000000000000e+00
  +0.00000000000000000000e+00
  +0.00000000000000000000e+00
  +0.00000000000000000000e+00
  +0.00000000000000000000e+00
  +1.00000000000000000000e+01
  +1.00000000000000000000e+01
  +1.00000000000000000000e+01
  +1.00000000000000000000e+01
  +1.00000000000000000000e+01
  +1.00000000000000000000e+01
  +1.00000000000000000000e+01
  +1.00000000000000000000e+01
  +1.00000000000000000000e+01
